! Touchstone S4P File
! LightRail AI LR-P3A Rev 6.3 — QPA
! CXL 2.0 differential pair, 85ohm Zdiff, 100mm on Megtron-7
!
# GHz S RI R 42.5
! f = 0.1000 GHz
      0.1000      0.007398    -0.006729      0.003976     0.003976      0.719679    -0.278340      0.001280    -0.000495
                   0.003976     0.003976      0.007398    -0.006729      0.001280    -0.000495      0.719679    -0.278340
                   0.719679    -0.278340      0.001280    -0.000495      0.007398    -0.006729      0.003976     0.003976
                   0.001280    -0.000495      0.719679    -0.278340      0.003976     0.003976      0.007398    -0.006729
! f = 0.6031 GHz
      0.6031     -0.002578     0.009662      0.003976     0.003976     -0.424533    -0.552630     -0.000755    -0.000983
                   0.003976     0.003976     -0.002578     0.009662     -0.000755    -0.000983     -0.424533    -0.552630
                  -0.424533    -0.552630     -0.000755    -0.000983     -0.002578     0.009662      0.003976     0.003976
                  -0.000755    -0.000983     -0.424533    -0.552630      0.003976     0.003976     -0.002578     0.009662
! f = 1.1063 GHz
      1.1063     -0.003063    -0.009519      0.003976     0.003976     -0.383700     0.526551     -0.000682     0.000936
                   0.003976     0.003976     -0.003063    -0.009519     -0.000682     0.000936     -0.383700     0.526551
                  -0.383700     0.526551     -0.000682     0.000936     -0.003063    -0.009519      0.003976     0.003976
                  -0.000682     0.000936     -0.383700     0.526551      0.003976     0.003976     -0.003063    -0.009519
! f = 1.6094 GHz
      1.6094      0.007729     0.006346      0.003976     0.003976      0.579784     0.207520      0.001031     0.000369
                   0.003976     0.003976      0.007729     0.006346      0.001031     0.000369      0.579784     0.207520
                   0.579784     0.207520      0.001031     0.000369      0.007729     0.006346      0.003976     0.003976
                   0.001031     0.000369      0.579784     0.207520      0.003976     0.003976      0.007729     0.006346
! f = 2.1126 GHz
      2.1126     -0.009933    -0.001152      0.003976     0.003976      0.033770    -0.584560      0.000060    -0.001040
                   0.003976     0.003976     -0.009933    -0.001152      0.000060    -0.001040      0.033770    -0.584560
                   0.033770    -0.584560      0.000060    -0.001040     -0.009933    -0.001152      0.003976     0.003976
                   0.000060    -0.001040      0.033770    -0.584560      0.003976     0.003976     -0.009933    -0.001152
! f = 2.6157 GHz
      2.6157      0.008975    -0.004409      0.003976     0.003976     -0.544437     0.126505     -0.000968     0.000225
                   0.003976     0.003976      0.008975    -0.004409     -0.000968     0.000225     -0.544437     0.126505
                  -0.544437     0.126505     -0.000968     0.000225      0.008975    -0.004409      0.003976     0.003976
                  -0.000968     0.000225     -0.544437     0.126505      0.003976     0.003976      0.008975    -0.004409
! f = 3.1189 GHz
      3.1189     -0.005160     0.008566      0.003976     0.003976      0.263223     0.465843      0.000468     0.000828
                   0.003976     0.003976     -0.005160     0.008566      0.000468     0.000828      0.263223     0.465843
                   0.263223     0.465843      0.000468     0.000828     -0.005160     0.008566      0.003976     0.003976
                   0.000468     0.000828      0.263223     0.465843      0.003976     0.003976     -0.005160     0.008566
! f = 3.6220 GHz
      3.6220     -0.000299    -0.009996      0.003976     0.003976      0.357512    -0.368355      0.000636    -0.000655
                   0.003976     0.003976     -0.000299    -0.009996      0.000636    -0.000655      0.357512    -0.368355
                   0.357512    -0.368355      0.000636    -0.000655     -0.000299    -0.009996      0.003976     0.003976
                   0.000636    -0.000655      0.357512    -0.368355      0.003976     0.003976     -0.000299    -0.009996
! f = 4.1252 GHz
      4.1252      0.005662     0.008243      0.003976     0.003976     -0.436548    -0.229746     -0.000776    -0.000409
                   0.003976     0.003976      0.005662     0.008243     -0.000776    -0.000409     -0.436548    -0.229746
                  -0.436548    -0.229746     -0.000776    -0.000409      0.005662     0.008243      0.003976     0.003976
                  -0.000776    -0.000409     -0.436548    -0.229746      0.003976     0.003976      0.005662     0.008243
! f = 4.6283 GHz
      4.6283     -0.009223    -0.003865      0.003976     0.003976     -0.093591     0.465440     -0.000166     0.000828
                   0.003976     0.003976     -0.009223    -0.003865     -0.000166     0.000828     -0.093591     0.465440
                  -0.093591     0.465440     -0.000166     0.000828     -0.009223    -0.003865      0.003976     0.003976
                  -0.000166     0.000828     -0.093591     0.465440      0.003976     0.003976     -0.009223    -0.003865
! f = 5.1315 GHz
      5.1315      0.009847    -0.001743      0.003976     0.003976      0.455689    -0.040011      0.000810    -0.000071
                   0.003976     0.003976      0.009847    -0.001743      0.000810    -0.000071      0.455689    -0.040011
                   0.455689    -0.040011      0.000810    -0.000071      0.009847    -0.001743      0.003976     0.003976
                   0.000810    -0.000071      0.455689    -0.040011      0.003976     0.003976      0.009847    -0.001743
! f = 5.6346 GHz
      5.6346     -0.007336     0.006796      0.003976     0.003976     -0.161025    -0.410777     -0.000286    -0.000730
                   0.003976     0.003976     -0.007336     0.006796     -0.000286    -0.000730     -0.161025    -0.410777
                  -0.161025    -0.410777     -0.000286    -0.000730     -0.007336     0.006796      0.003976     0.003976
                  -0.000286    -0.000730     -0.161025    -0.410777      0.003976     0.003976     -0.007336     0.006796
! f = 6.1378 GHz
      6.1378      0.002489    -0.009685      0.003976     0.003976     -0.336586     0.261013     -0.000599     0.000464
                   0.003976     0.003976      0.002489    -0.009685     -0.000599     0.000464     -0.336586     0.261013
                  -0.336586     0.261013     -0.000599     0.000464      0.002489    -0.009685      0.003976     0.003976
                  -0.000599     0.000464     -0.336586     0.261013      0.003976     0.003976      0.002489    -0.009685
! f = 6.6409 GHz
      6.6409      0.003150     0.009491      0.003976     0.003976      0.333671     0.240828      0.000593     0.000428
                   0.003976     0.003976      0.003150     0.009491      0.000593     0.000428      0.333671     0.240828
                   0.333671     0.240828      0.000593     0.000428      0.003150     0.009491      0.003976     0.003976
                   0.000593     0.000428      0.333671     0.240828      0.003976     0.003976      0.003150     0.009491
! f = 7.1441 GHz
      7.1441     -0.007786    -0.006275      0.003976     0.003976      0.132360    -0.375174      0.000235    -0.000667
                   0.003976     0.003976     -0.007786    -0.006275      0.000235    -0.000667      0.132360    -0.375174
                   0.132360    -0.375174      0.000235    -0.000667     -0.007786    -0.006275      0.003976     0.003976
                   0.000235    -0.000667      0.132360    -0.375174      0.003976     0.003976     -0.007786    -0.006275
! f = 7.6472 GHz
      7.6472      0.009944     0.001061      0.003976     0.003976     -0.384322    -0.020446     -0.000683    -0.000036
                   0.003976     0.003976      0.009944     0.001061     -0.000683    -0.000036     -0.384322    -0.020446
                  -0.384322    -0.020446     -0.000683    -0.000036      0.009944     0.001061      0.003976     0.003976
                  -0.000683    -0.000036     -0.384322    -0.020446      0.003976     0.003976      0.009944     0.001061
! f = 8.1504 GHz
      8.1504     -0.008935     0.004491      0.003976     0.003976      0.085965     0.362470      0.000153     0.000645
                   0.003976     0.003976     -0.008935     0.004491      0.000153     0.000645      0.085965     0.362470
                   0.085965     0.362470      0.000153     0.000645     -0.008935     0.004491      0.003976     0.003976
                   0.000153     0.000645      0.085965     0.362470      0.003976     0.003976     -0.008935     0.004491
! f = 8.6535 GHz
      8.6535      0.005082    -0.008613      0.003976     0.003976      0.313278    -0.178904      0.000557    -0.000318
                   0.003976     0.003976      0.005082    -0.008613      0.000557    -0.000318      0.313278    -0.178904
                   0.313278    -0.178904      0.000557    -0.000318      0.005082    -0.008613      0.003976     0.003976
                   0.000557    -0.000318      0.313278    -0.178904      0.003976     0.003976      0.005082    -0.008613
! f = 9.1567 GHz
      9.1567      0.000390     0.009992      0.003976     0.003976     -0.251929    -0.242295     -0.000448    -0.000431
                   0.003976     0.003976      0.000390     0.009992     -0.000448    -0.000431     -0.251929    -0.242295
                  -0.251929    -0.242295     -0.000448    -0.000431      0.000390     0.009992      0.003976     0.003976
                  -0.000448    -0.000431     -0.251929    -0.242295      0.003976     0.003976      0.000390     0.009992
! f = 9.6598 GHz
      9.6598     -0.005737    -0.008191      0.003976     0.003976     -0.156420     0.300532     -0.000278     0.000534
                   0.003976     0.003976     -0.005737    -0.008191     -0.000278     0.000534     -0.156420     0.300532
                  -0.156420     0.300532     -0.000278     0.000534     -0.005737    -0.008191      0.003976     0.003976
                  -0.000278     0.000534     -0.156420     0.300532      0.003976     0.003976     -0.005737    -0.008191
! f = 10.1630 GHz
     10.1630      0.009258     0.003781      0.003976     0.003976      0.322372     0.063297      0.000573     0.000113
                   0.003976     0.003976      0.009258     0.003781      0.000573     0.000113      0.322372     0.063297
                   0.322372     0.063297      0.000573     0.000113      0.009258     0.003781      0.003976     0.003976
                   0.000573     0.000113      0.322372     0.063297      0.003976     0.003976      0.009258     0.003781
! f = 10.6661 GHz
     10.6661     -0.009831     0.001832      0.003976     0.003976     -0.029320    -0.317330     -0.000052    -0.000564
                   0.003976     0.003976     -0.009831     0.001832     -0.000052    -0.000564     -0.029320    -0.317330
                  -0.029320    -0.317330     -0.000052    -0.000564     -0.009831     0.001832      0.003976     0.003976
                  -0.000052    -0.000564     -0.029320    -0.317330      0.003976     0.003976     -0.009831     0.001832
! f = 11.1693 GHz
     11.1693      0.007274    -0.006862      0.003976     0.003976     -0.287388     0.114169     -0.000511     0.000203
                   0.003976     0.003976      0.007274    -0.006862     -0.000511     0.000203     -0.287388     0.114169
                  -0.287388     0.114169     -0.000511     0.000203      0.007274    -0.006862      0.003976     0.003976
                  -0.000511     0.000203     -0.287388     0.114169      0.003976     0.003976      0.007274    -0.006862
! f = 11.6724 GHz
     11.6724     -0.002401     0.009707      0.003976     0.003976      0.185021     0.236360      0.000329     0.000420
                   0.003976     0.003976     -0.002401     0.009707      0.000329     0.000420      0.185021     0.236360
                   0.185021     0.236360      0.000329     0.000420     -0.002401     0.009707      0.003976     0.003976
                   0.000329     0.000420      0.185021     0.236360      0.003976     0.003976     -0.002401     0.009707
! f = 12.1756 GHz
     12.1756     -0.003236    -0.009462      0.003976     0.003976      0.169488    -0.237096      0.000301    -0.000422
                   0.003976     0.003976     -0.003236    -0.009462      0.000301    -0.000422      0.169488    -0.237096
                   0.169488    -0.237096      0.000301    -0.000422     -0.003236    -0.009462      0.003976     0.003976
                   0.000301    -0.000422      0.169488    -0.237096      0.003976     0.003976     -0.003236    -0.009462
! f = 12.6787 GHz
     12.6787      0.007843     0.006204      0.003976     0.003976     -0.267360    -0.092957     -0.000475    -0.000165
                   0.003976     0.003976      0.007843     0.006204     -0.000475    -0.000165     -0.267360    -0.092957
                  -0.267360    -0.092957     -0.000475    -0.000165      0.007843     0.006204      0.003976     0.003976
                  -0.000475    -0.000165     -0.267360    -0.092957      0.003976     0.003976      0.007843     0.006204
! f = 13.1819 GHz
     13.1819     -0.009953    -0.000970      0.003976     0.003976     -0.013358     0.274662     -0.000024     0.000488
                   0.003976     0.003976     -0.009953    -0.000970     -0.000024     0.000488     -0.013358     0.274662
                  -0.013358     0.274662     -0.000024     0.000488     -0.009953    -0.000970      0.003976     0.003976
                  -0.000024     0.000488     -0.013358     0.274662      0.003976     0.003976     -0.009953    -0.000970
! f = 13.6850 GHz
     13.6850      0.008894    -0.004572      0.003976     0.003976      0.259714    -0.062846      0.000462    -0.000112
                   0.003976     0.003976      0.008894    -0.004572      0.000462    -0.000112      0.259714    -0.062846
                   0.259714    -0.062846      0.000462    -0.000112      0.008894    -0.004572      0.003976     0.003976
                   0.000462    -0.000112      0.259714    -0.062846      0.003976     0.003976      0.008894    -0.004572
! f = 14.1882 GHz
     14.1882     -0.005003     0.008659      0.003976     0.003976     -0.129819    -0.224940     -0.000231    -0.000400
                   0.003976     0.003976     -0.005003     0.008659     -0.000231    -0.000400     -0.129819    -0.224940
                  -0.129819    -0.224940     -0.000231    -0.000400     -0.005003     0.008659      0.003976     0.003976
                  -0.000231    -0.000400     -0.129819    -0.224940      0.003976     0.003976     -0.005003     0.008659
! f = 14.6913 GHz
     14.6913     -0.000481    -0.009988      0.003976     0.003976     -0.174189     0.182774     -0.000310     0.000325
                   0.003976     0.003976     -0.000481    -0.009988     -0.000310     0.000325     -0.174189     0.182774
                  -0.174189     0.182774     -0.000310     0.000325     -0.000481    -0.009988      0.003976     0.003976
                  -0.000310     0.000325     -0.174189     0.182774      0.003976     0.003976     -0.000481    -0.009988
! f = 15.1945 GHz
     15.1945      0.005811     0.008138      0.003976     0.003976      0.218289     0.112353      0.000388     0.000200
                   0.003976     0.003976      0.005811     0.008138      0.000388     0.000200      0.218289     0.112353
                   0.218289     0.112353      0.000388     0.000200      0.005811     0.008138      0.003976     0.003976
                   0.000388     0.000200      0.218289     0.112353      0.003976     0.003976      0.005811     0.008138
! f = 15.6976 GHz
     15.6976     -0.009292    -0.003697      0.003976     0.003976      0.044936    -0.234503      0.000080    -0.000417
                   0.003976     0.003976     -0.009292    -0.003697      0.000080    -0.000417      0.044936    -0.234503
                   0.044936    -0.234503      0.000080    -0.000417     -0.009292    -0.003697      0.003976     0.003976
                   0.000080    -0.000417      0.044936    -0.234503      0.003976     0.003976     -0.009292    -0.003697
! f = 16.2008 GHz
     16.2008      0.009814    -0.001922      0.003976     0.003976     -0.231178     0.022422     -0.000411     0.000040
                   0.003976     0.003976      0.009814    -0.001922     -0.000411     0.000040     -0.231178     0.022422
                  -0.231178     0.022422     -0.000411     0.000040      0.009814    -0.001922      0.003976     0.003976
                  -0.000411     0.000040     -0.231178     0.022422      0.003976     0.003976      0.009814    -0.001922
! f = 16.7039 GHz
     16.7039     -0.007211     0.006928      0.003976     0.003976      0.084385     0.209626      0.000150     0.000373
                   0.003976     0.003976     -0.007211     0.006928      0.000150     0.000373      0.084385     0.209626
                   0.084385     0.209626      0.000150     0.000373     -0.007211     0.006928      0.003976     0.003976
                   0.000150     0.000373      0.084385     0.209626      0.003976     0.003976     -0.007211     0.006928
! f = 17.2071 GHz
     17.2071      0.002313    -0.009729      0.003976     0.003976      0.172532    -0.136329      0.000307    -0.000242
                   0.003976     0.003976      0.002313    -0.009729      0.000307    -0.000242      0.172532    -0.136329
                   0.172532    -0.136329      0.000307    -0.000242      0.002313    -0.009729      0.003976     0.003976
                   0.000307    -0.000242      0.172532    -0.136329      0.003976     0.003976      0.002313    -0.009729
! f = 17.7102 GHz
     17.7102      0.003322     0.009432      0.003976     0.003976     -0.174666    -0.123662     -0.000311    -0.000220
                   0.003976     0.003976      0.003322     0.009432     -0.000311    -0.000220     -0.174666    -0.123662
                  -0.174666    -0.123662     -0.000311    -0.000220      0.003322     0.009432      0.003976     0.003976
                  -0.000311    -0.000220     -0.174666    -0.123662      0.003976     0.003976      0.003322     0.009432
! f = 18.2134 GHz
     18.2134     -0.007899    -0.006132      0.003976     0.003976     -0.067515     0.197076     -0.000120     0.000350
                   0.003976     0.003976     -0.007899    -0.006132     -0.000120     0.000350     -0.067515     0.197076
                  -0.067515     0.197076     -0.000120     0.000350     -0.007899    -0.006132      0.003976     0.003976
                  -0.000120     0.000350     -0.067515     0.197076      0.003976     0.003976     -0.007899    -0.006132
! f = 18.7165 GHz
     18.7165      0.009961     0.000880      0.003976     0.003976      0.202614     0.008929      0.000360     0.000016
                   0.003976     0.003976      0.009961     0.000880      0.000360     0.000016      0.202614     0.008929
                   0.202614     0.008929      0.000360     0.000016      0.009961     0.000880      0.003976     0.003976
                   0.000360     0.000016      0.202614     0.008929      0.003976     0.003976      0.009961     0.000880
! f = 19.2197 GHz
     19.2197     -0.008852     0.004653      0.003976     0.003976     -0.047319    -0.191723     -0.000084    -0.000341
                   0.003976     0.003976     -0.008852     0.004653     -0.000084    -0.000341     -0.047319    -0.191723
                  -0.047319    -0.191723     -0.000084    -0.000341     -0.008852     0.004653      0.003976     0.003976
                  -0.000084    -0.000341     -0.047319    -0.191723      0.003976     0.003976     -0.008852     0.004653
! f = 19.7228 GHz
     19.7228      0.004924    -0.008704      0.003976     0.003976     -0.166121     0.096884     -0.000295     0.000172
