! Touchstone S2P File
! LightRail AI LR-P3A Rev 6.3 — QPA
! LVDS trigger channel, 100ohm diff, 30mm on Megtron-7
! Generated by generate_sparams.py
!
# GHz S RI R 50.0
! freq        Re(S11)     Im(S11)     Re(S21)     Im(S21)     Re(S12)     Im(S12)     Re(S22)     Im(S22)
      0.0100      0.004999    -0.000111      0.993957    -0.010996      0.993957    -0.010996      0.004999    -0.000111
      0.0604      0.004955    -0.000666      0.983163    -0.065796      0.983163    -0.065796      0.004955    -0.000666
      0.1108      0.004850    -0.001214      0.972870    -0.119859      0.972870    -0.119859      0.004850    -0.001214
      0.1612      0.004685    -0.001746      0.960713    -0.173177      0.960713    -0.173177      0.004685    -0.001746
      0.2116      0.004462    -0.002256      0.946241    -0.225657      0.946241    -0.225657      0.004462    -0.002256
      0.2620      0.004183    -0.002739      0.929298    -0.277178      0.929298    -0.277178      0.004183    -0.002739
      0.3124      0.003852    -0.003188      0.909833    -0.327612      0.909833    -0.327612      0.003852    -0.003188
      0.3628      0.003474    -0.003596      0.887846    -0.376826      0.887846    -0.376826      0.003474    -0.003596
      0.4132      0.003052    -0.003961      0.863365    -0.424689      0.863365    -0.424689      0.003052    -0.003961
      0.4636      0.002592    -0.004276      0.836442    -0.471068      0.836442    -0.471068      0.002592    -0.004276
      0.5140      0.002100    -0.004538      0.807140    -0.515835      0.807140    -0.515835      0.002100    -0.004538
      0.5644      0.001582    -0.004743      0.775539    -0.558864      0.775539    -0.558864      0.001582    -0.004743
      0.6148      0.001044    -0.004890      0.741725    -0.600034      0.741725    -0.600034      0.001044    -0.004890
      0.6653      0.000494    -0.004976      0.705795    -0.639230      0.705795    -0.639230      0.000494    -0.004976
      0.7157     -0.000063    -0.005000      0.667857    -0.676339      0.667857    -0.676339     -0.000063    -0.005000
      0.7661     -0.000619    -0.004962      0.628021    -0.711258      0.628021    -0.711258     -0.000619    -0.004962
      0.8165     -0.001167    -0.004862      0.586407    -0.743887      0.586407    -0.743887     -0.001167    -0.004862
      0.8669     -0.001701    -0.004702      0.543142    -0.774135      0.543142    -0.774135     -0.001701    -0.004702
      0.9173     -0.002214    -0.004483      0.498355    -0.801917      0.498355    -0.801917     -0.002214    -0.004483
      0.9677     -0.002699    -0.004209      0.452184    -0.827155      0.452184    -0.827155     -0.002699    -0.004209
      1.0181     -0.003151    -0.003882      0.404768    -0.849780      0.404768    -0.849780     -0.003151    -0.003882
      1.0685     -0.003563    -0.003508      0.356251    -0.869729      0.356251    -0.869729     -0.003563    -0.003508
      1.1189     -0.003931    -0.003089      0.306782    -0.886948      0.306782    -0.886948     -0.003931    -0.003089
      1.1693     -0.004251    -0.002633      0.256512    -0.901392      0.256512    -0.901392     -0.004251    -0.002633
      1.2197     -0.004517    -0.002143      0.205592    -0.913023      0.205592    -0.913023     -0.004517    -0.002143
      1.2701     -0.004728    -0.001627      0.154179    -0.921811      0.154179    -0.921811     -0.004728    -0.001627
      1.3205     -0.004880    -0.001091      0.102430    -0.927738      0.102430    -0.927738     -0.004880    -0.001091
      1.3709     -0.004971    -0.000541      0.050500    -0.930790      0.050500    -0.930790     -0.004971    -0.000541
      1.4213     -0.005000     0.000016     -0.001451    -0.930966     -0.001451    -0.930966     -0.005000     0.000016
      1.4717     -0.004967     0.000572     -0.053266    -0.928270     -0.053266    -0.928270     -0.004967     0.000572
      1.5221     -0.004873     0.001121     -0.104787    -0.922718     -0.104787    -0.922718     -0.004873     0.001121
      1.5725     -0.004718     0.001656     -0.155859    -0.914332     -0.155859    -0.914332     -0.004718     0.001656
      1.6229     -0.004504     0.002171     -0.206327    -0.903143     -0.206327    -0.903143     -0.004504     0.002171
      1.6733     -0.004234     0.002659     -0.256038    -0.889193     -0.256038    -0.889193     -0.004234     0.002659
      1.7237     -0.003912     0.003114     -0.304842    -0.872528     -0.304842    -0.872528     -0.003912     0.003114
      1.7741     -0.003541     0.003530     -0.352593    -0.853207     -0.352593    -0.853207     -0.003541     0.003530
      1.8245     -0.003126     0.003902     -0.399145    -0.831293     -0.399145    -0.831293     -0.003126     0.003902
      1.8749     -0.002673     0.004226     -0.444359    -0.806858     -0.444359    -0.806858     -0.002673     0.004226
      1.9254     -0.002186     0.004497     -0.488100    -0.779983     -0.488100    -0.779983     -0.002186     0.004497
      1.9758     -0.001672     0.004712     -0.530237    -0.750755     -0.530237    -0.750755     -0.001672     0.004712
      2.0262     -0.001137     0.004869     -0.570643    -0.719268     -0.570643    -0.719268     -0.001137     0.004869
      2.0766     -0.000588     0.004965     -0.609199    -0.685623     -0.609199    -0.685623     -0.000588     0.004965
      2.1270     -0.000032     0.005000     -0.645789    -0.649927     -0.645789    -0.649927     -0.000032     0.005000
      2.1774      0.000525     0.004972     -0.680305    -0.612295     -0.680305    -0.612295      0.000525     0.004972
      2.2278      0.001075     0.004883     -0.712645    -0.572845     -0.712645    -0.572845      0.001075     0.004883
      2.2782      0.001612     0.004733     -0.742715    -0.531702     -0.742715    -0.531702      0.001612     0.004733
      2.3286      0.002128     0.004524     -0.770425    -0.488995     -0.770425    -0.488995      0.002128     0.004524
      2.3790      0.002619     0.004259     -0.795695    -0.444860     -0.795695    -0.444860      0.002619     0.004259
      2.4294      0.003076     0.003942     -0.818453    -0.399433     -0.818453    -0.399433      0.003076     0.003942
      2.4798      0.003496     0.003575     -0.838632    -0.352858     -0.838632    -0.352858      0.003496     0.003575
      2.5302      0.003872     0.003163     -0.856176    -0.305280     -0.856176    -0.305280      0.003872     0.003163
      2.5806      0.004200     0.002713     -0.871034    -0.256846     -0.871034    -0.256846      0.004200     0.002713
      2.6310      0.004476     0.002229     -0.883167    -0.207708     -0.883167    -0.207708      0.004476     0.002229
      2.6814      0.004696     0.001717     -0.892542    -0.158019     -0.892542    -0.158019      0.004696     0.001717
      2.7318      0.004858     0.001183     -0.899135    -0.107931     -0.899135    -0.107931      0.004858     0.001183
      2.7822      0.004959     0.000635     -0.902930    -0.057601     -0.902930    -0.057601      0.004959     0.000635
      2.8326      0.004999     0.000079     -0.903920    -0.007183     -0.903920    -0.007183      0.004999     0.000079
      2.8830      0.004977    -0.000477     -0.902109     0.043166     -0.902109     0.043166      0.004977    -0.000477
      2.9334      0.004893    -0.001028     -0.897505     0.093293     -0.897505     0.093293      0.004893    -0.001028
      2.9838      0.004748    -0.001567     -0.890127     0.143041     -0.890127     0.143041      0.004748    -0.001567
      3.0342      0.004544    -0.002085     -0.880005     0.192259     -0.880005     0.192259      0.004544    -0.002085
      3.0846      0.004284    -0.002578     -0.867172     0.240796     -0.867172     0.240796      0.004284    -0.002578
      3.1351      0.003971    -0.003039     -0.851674     0.288503     -0.851674     0.288503      0.003971    -0.003039
      3.1855      0.003608    -0.003462     -0.833562     0.335235     -0.833562     0.335235      0.003608    -0.003462
      3.2359      0.003200    -0.003842     -0.812897     0.380848     -0.812897     0.380848      0.003200    -0.003842
      3.2863      0.002753    -0.004174     -0.789747     0.425204     -0.789747     0.425204      0.002753    -0.004174
      3.3367      0.002271    -0.004454     -0.764187     0.468167     -0.764187     0.468167      0.002271    -0.004454
      3.3871      0.001761    -0.004680     -0.736300     0.509609     -0.736300     0.509609      0.001761    -0.004680
      3.4375      0.001229    -0.004846     -0.706176     0.549402     -0.706176     0.549402      0.001229    -0.004846
      3.4879      0.000682    -0.004953     -0.673912     0.587427     -0.673912     0.587427      0.000682    -0.004953
      3.5383      0.000127    -0.004998     -0.639610     0.623569     -0.639610     0.623569      0.000127    -0.004998
      3.5887     -0.000430    -0.004981     -0.603380     0.657719     -0.603380     0.657719     -0.000430    -0.004981
      3.6391     -0.000982    -0.004903     -0.565336     0.689775     -0.565336     0.689775     -0.000982    -0.004903
      3.6895     -0.001521    -0.004763     -0.525600     0.719641     -0.525600     0.719641     -0.001521    -0.004763
      3.7399     -0.002042    -0.004564     -0.484297     0.747229     -0.484297     0.747229     -0.002042    -0.004564
      3.7903     -0.002537    -0.004308     -0.441555     0.772456     -0.441555     0.772456     -0.002537    -0.004308
      3.8407     -0.003001    -0.003999     -0.397511     0.795248     -0.397511     0.795248     -0.003001    -0.003999
      3.8911     -0.003427    -0.003641     -0.352302     0.815538     -0.352302     0.815538     -0.003427    -0.003641
      3.9415     -0.003811    -0.003236     -0.306069     0.833268     -0.306069     0.833268     -0.003811    -0.003236
      3.9919     -0.004148    -0.002792     -0.258957     0.848387     -0.258957     0.848387     -0.004148    -0.002792
      4.0423     -0.004433    -0.002313     -0.211114     0.860850     -0.211114     0.860850     -0.004433    -0.002313
      4.0927     -0.004663    -0.001806     -0.162687     0.870625     -0.162687     0.870625     -0.004663    -0.001806
      4.1431     -0.004835    -0.001275     -0.113828     0.877685     -0.113828     0.877685     -0.004835    -0.001275
      4.1935     -0.004946    -0.000729     -0.064689     0.882011     -0.064689     0.882011     -0.004946    -0.000729
      4.2439     -0.004997    -0.000174     -0.015421     0.883594     -0.015421     0.883594     -0.004997    -0.000174
      4.2943     -0.004985     0.000383      0.033822     0.882434      0.033822     0.882434     -0.004985     0.000383
      4.3447     -0.004912     0.000935      0.082889     0.878539      0.082889     0.878539     -0.004912     0.000935
      4.3952     -0.004777     0.001476      0.131627     0.871923      0.131627     0.871923     -0.004777     0.001476
      4.4456     -0.004583     0.001998      0.179887     0.862611      0.179887     0.862611     -0.004583     0.001998
      4.4960     -0.004332     0.002496      0.227519     0.850637      0.227519     0.850637     -0.004332     0.002496
      4.5464     -0.004028     0.002963      0.274377     0.836040      0.274377     0.836040     -0.004028     0.002963
      4.5968     -0.003673     0.003393      0.320318     0.818870      0.320318     0.818870     -0.003673     0.003393
      4.6472     -0.003273     0.003780      0.365200     0.799183      0.365200     0.799183     -0.003273     0.003780
      4.6976     -0.002832     0.004121      0.408886     0.777044      0.408886     0.777044     -0.002832     0.004121
      4.7480     -0.002355     0.004411      0.451242     0.752524      0.451242     0.752524     -0.002355     0.004411
      4.7984     -0.001850     0.004645      0.492140     0.725704      0.492140     0.725704     -0.001850     0.004645
      4.8488     -0.001321     0.004822      0.531453     0.696668      0.531453     0.696668     -0.001321     0.004822
      4.8992     -0.000776     0.004939      0.569064     0.665511      0.569064     0.665511     -0.000776     0.004939
      4.9496     -0.000222     0.004995      0.604857     0.632331      0.604857     0.632331     -0.000222     0.004995
      5.0000      0.000335     0.004989      0.638725     0.597233      0.638725     0.597233      0.000335     0.004989
