! Touchstone S2P File
! LightRail AI LR-P3A Rev 6.3 — QPA
! MZI 2x2 optical transfer, 500um arms, theta=0.42pi, freq axis = optical THz
! Generated by generate_sparams.py
!
# GHz S RI R 1.0
! freq        Re(S11)     Im(S11)     Re(S21)     Im(S21)     Re(S12)     Im(S12)     Re(S22)     Im(S22)
 192600.0000      0.001000     0.000000      0.472496     0.477470      0.472496     0.477470      0.001000     0.000000
 192605.0000      0.001000     0.000000      0.413931     0.473246      0.413931     0.473246      0.001000     0.000000
 192610.0000      0.001000     0.000000      0.356328     0.461867      0.356328     0.461867      0.001000     0.000000
 192615.0000      0.001000     0.000000      0.300556     0.443503      0.300556     0.443503      0.001000     0.000000
 192620.0000      0.001000     0.000000      0.247461     0.418433      0.247461     0.418433      0.001000     0.000000
 192625.0000      0.001000     0.000000      0.197843     0.387036      0.197843     0.387036      0.001000     0.000000
 192630.0000      0.001000     0.000000      0.152455     0.349787      0.152455     0.349787      0.001000     0.000000
 192635.0000      0.001000     0.000000      0.111981     0.307248      0.111981     0.307248      0.001000     0.000000
 192640.0000      0.001000     0.000000      0.077034     0.260063      0.077034     0.260063      0.001000     0.000000
 192645.0000      0.001000     0.000000      0.048143     0.208946      0.048143     0.208946      0.001000     0.000000
 192650.0000      0.001000     0.000000      0.025744     0.154669      0.025744     0.154669      0.001000     0.000000
 192655.0000      0.001000     0.000000      0.010176     0.098054      0.010176     0.098054      0.001000     0.000000
 192660.0000      0.001000     0.000000      0.001675     0.039956      0.001675     0.039956      0.001000     0.000000
 192665.0000      0.001000     0.000000     -0.000368     0.018746     -0.000368     0.018746      0.001000     0.000000
 192670.0000      0.001000     0.000000     -0.006276     0.077165     -0.006276     0.077165      0.001000     0.000000
 192675.0000      0.001000     0.000000     -0.019310     0.134417     -0.019310     0.134417      0.001000     0.000000
 192680.0000      0.001000     0.000000     -0.039272     0.189637     -0.039272     0.189637      0.001000     0.000000
 192685.0000      0.001000     0.000000     -0.065860     0.241989     -0.065860     0.241989      0.001000     0.000000
 192690.0000      0.001000     0.000000     -0.098673     0.290681     -0.098673     0.290681      0.001000     0.000000
 192695.0000      0.001000     0.000000     -0.137214     0.334979     -0.137214     0.334979      0.001000     0.000000
 192700.0000      0.001000     0.000000     -0.180901     0.374211     -0.180901     0.374211      0.001000     0.000000
 192705.0000      0.001000     0.000000     -0.229072     0.407784     -0.229072     0.407784      0.001000     0.000000
 192710.0000      0.001000     0.000000     -0.281000     0.435192     -0.281000     0.435192      0.001000     0.000000
 192715.0000      0.001000     0.000000     -0.335899     0.456018     -0.335899     0.456018      0.001000     0.000000
 192720.0000      0.001000     0.000000     -0.392939     0.469950     -0.392939     0.469950      0.001000     0.000000
 192725.0000      0.001000     0.000000     -0.451258     0.476775     -0.451258     0.476775      0.001000     0.000000
 192730.0000      0.001000     0.000000     -0.509973     0.476391     -0.509973     0.476391      0.001000     0.000000
 192735.0000      0.001000     0.000000     -0.568198     0.468803     -0.568198     0.468803      0.001000     0.000000
 192740.0000      0.001000     0.000000     -0.625051     0.454126     -0.625051     0.454126      0.001000     0.000000
 192745.0000      0.001000     0.000000     -0.679673     0.432582     -0.679673     0.432582      0.001000     0.000000
 192750.0000      0.001000     0.000000     -0.731237     0.404498     -0.731237     0.404498      0.001000     0.000000
 192755.0000      0.001000     0.000000     -0.778965     0.370296     -0.778965     0.370296      0.001000     0.000000
 192760.0000      0.001000     0.000000     -0.822134     0.330496     -0.822134     0.330496      0.001000     0.000000
 192765.0000      0.001000     0.000000     -0.860092     0.285698     -0.860092     0.285698      0.001000     0.000000
 192770.0000      0.001000     0.000000     -0.892265     0.236580     -0.892265     0.236580      0.001000     0.000000
 192775.0000      0.001000     0.000000     -0.918165     0.183884     -0.918165     0.183884      0.001000     0.000000
 192780.0000      0.001000     0.000000     -0.937403     0.128408     -0.937403     0.128408      0.001000     0.000000
 192785.0000      0.001000     0.000000     -0.949686     0.070991     -0.949686     0.070991      0.001000     0.000000
 192790.0000      0.001000     0.000000     -0.954829     0.012499     -0.954829     0.012499      0.001000     0.000000
 192795.0000      0.001000     0.000000     -0.952754    -0.046181     -0.952754    -0.046181      0.001000     0.000000
 192800.0000      0.001000     0.000000     -0.943493    -0.104163     -0.943493    -0.104163      0.001000     0.000000
 192805.0000      0.001000     0.000000     -0.927185    -0.160569     -0.927185    -0.160569      0.001000     0.000000
 192810.0000      0.001000     0.000000     -0.904078    -0.214548     -0.904078    -0.214548      0.001000     0.000000
 192815.0000      0.001000     0.000000     -0.874520    -0.265283     -0.874520    -0.265283      0.001000     0.000000
 192820.0000      0.001000     0.000000     -0.838959    -0.312006     -0.838959    -0.312006      0.001000     0.000000
 192825.0000      0.001000     0.000000     -0.797932    -0.354011     -0.797932    -0.354011      0.001000     0.000000
 192830.0000      0.001000     0.000000     -0.752059    -0.390663     -0.752059    -0.390663      0.001000     0.000000
 192835.0000      0.001000     0.000000     -0.702035    -0.421408     -0.702035    -0.421408      0.001000     0.000000
 192840.0000      0.001000     0.000000     -0.648616    -0.445781     -0.648616    -0.445781      0.001000     0.000000
 192845.0000      0.001000     0.000000     -0.592609    -0.463413     -0.592609    -0.463413      0.001000     0.000000
 192850.0000      0.001000     0.000000     -0.534861    -0.474038     -0.534861    -0.474038      0.001000     0.000000
 192855.0000      0.001000     0.000000     -0.476246    -0.477495     -0.476246    -0.477495      0.001000     0.000000
 192860.0000      0.001000     0.000000     -0.417650    -0.473731     -0.417650    -0.473731      0.001000     0.000000
 192865.0000      0.001000     0.000000     -0.359959    -0.462804     -0.359959    -0.462804      0.001000     0.000000
 192870.0000      0.001000     0.000000     -0.304045    -0.444879     -0.304045    -0.444879      0.001000     0.000000
 192875.0000      0.001000     0.000000     -0.250754    -0.420227     -0.250754    -0.420227      0.001000     0.000000
 192880.0000      0.001000     0.000000     -0.200892    -0.389221     -0.200892    -0.389221      0.001000     0.000000
 192885.0000      0.001000     0.000000     -0.155212    -0.352329     -0.155212    -0.352329      0.001000     0.000000
 192890.0000      0.001000     0.000000     -0.114405    -0.310109     -0.114405    -0.310109      0.001000     0.000000
 192895.0000      0.001000     0.000000     -0.079089    -0.263200     -0.079089    -0.263200      0.001000     0.000000
 192900.0000      0.001000     0.000000     -0.049797    -0.212312     -0.049797    -0.212312      0.001000     0.000000
 192905.0000      0.001000     0.000000     -0.026973    -0.158213     -0.026973    -0.158213      0.001000     0.000000
 192910.0000      0.001000     0.000000     -0.010961    -0.101721     -0.010961    -0.101721      0.001000     0.000000
 192915.0000      0.001000     0.000000     -0.002003    -0.043692     -0.002003    -0.043692      0.001000     0.000000
 192920.0000      0.001000     0.000000      0.000236    -0.014999      0.000236    -0.014999      0.001000     0.000000
 192925.0000      0.001000     0.000000      0.005685    -0.073462      0.005685    -0.073462      0.001000     0.000000
 192930.0000      0.001000     0.000000      0.018268    -0.130815      0.018268    -0.130815      0.001000     0.000000
 192935.0000      0.001000     0.000000      0.037796    -0.186189      0.037796    -0.186189      0.001000     0.000000
 192940.0000      0.001000     0.000000      0.063972    -0.238748      0.063972    -0.238748      0.001000     0.000000
 192945.0000      0.001000     0.000000      0.096402    -0.287697      0.096402    -0.287697      0.001000     0.000000
 192950.0000      0.001000     0.000000      0.134594    -0.332296      0.134594    -0.332296      0.001000     0.000000
 192955.0000      0.001000     0.000000      0.177971    -0.371870      0.177971    -0.371870      0.001000     0.000000
 192960.0000      0.001000     0.000000      0.225877    -0.405821      0.225877    -0.405821      0.001000     0.000000
 192965.0000      0.001000     0.000000      0.277588    -0.433635      0.277588    -0.433635      0.001000     0.000000
 192970.0000      0.001000     0.000000      0.332322    -0.454892      0.332322    -0.454892      0.001000     0.000000
 192975.0000      0.001000     0.000000      0.389251    -0.469271      0.389251    -0.469271      0.001000     0.000000
 192980.0000      0.001000     0.000000      0.447514    -0.476554      0.447514    -0.476554      0.001000     0.000000
 192985.0000      0.001000     0.000000      0.506231    -0.476631      0.506231    -0.476631      0.001000     0.000000
 192990.0000      0.001000     0.000000      0.564513    -0.469501      0.564513    -0.469501      0.001000     0.000000
 192995.0000      0.001000     0.000000      0.621480    -0.455271      0.621480    -0.455271      0.001000     0.000000
 193000.0000      0.001000     0.000000      0.676269    -0.434157      0.676269    -0.434157      0.001000     0.000000
 193005.0000      0.001000     0.000000      0.728052    -0.406478      0.728052    -0.406478      0.001000     0.000000
 193010.0000      0.001000     0.000000      0.776047    -0.372653      0.776047    -0.372653      0.001000     0.000000
 193015.0000      0.001000     0.000000      0.819528    -0.333192      0.819528    -0.333192      0.001000     0.000000
 193020.0000      0.001000     0.000000      0.857836    -0.288694      0.857836    -0.288694      0.001000     0.000000
 193025.0000      0.001000     0.000000      0.890394    -0.239830      0.890394    -0.239830      0.001000     0.000000
 193030.0000      0.001000     0.000000      0.916708    -0.187340      0.916708    -0.187340      0.001000     0.000000
 193035.0000      0.001000     0.000000      0.936380    -0.132016      0.936380    -0.132016      0.001000     0.000000
 193040.0000      0.001000     0.000000      0.949114    -0.074697      0.949114    -0.074697      0.001000     0.000000
 193045.0000      0.001000     0.000000      0.954716    -0.016248      0.954716    -0.016248      0.001000     0.000000
 193050.0000      0.001000     0.000000      0.953102     0.042447      0.953102     0.042447      0.001000     0.000000
 193055.0000      0.001000     0.000000      0.944297     0.100499      0.944297     0.100499      0.001000     0.000000
 193060.0000      0.001000     0.000000      0.928433     0.157033      0.928433     0.157033      0.001000     0.000000
 193065.0000      0.001000     0.000000      0.905750     0.211191      0.905750     0.211191      0.001000     0.000000
 193070.0000      0.001000     0.000000      0.876591     0.262156      0.876591     0.262156      0.001000     0.000000
 193075.0000      0.001000     0.000000      0.841398     0.309157      0.841398     0.309157      0.001000     0.000000
 193080.0000      0.001000     0.000000      0.800702     0.351484      0.800702     0.351484      0.001000     0.000000
 193085.0000      0.001000     0.000000      0.755119     0.388495      0.755119     0.388495      0.001000     0.000000
 193090.0000      0.001000     0.000000      0.705338     0.419632      0.705338     0.419632      0.001000     0.000000
 193095.0000      0.001000     0.000000      0.652112     0.444423      0.652112     0.444423      0.001000     0.000000
 193100.0000      0.001000     0.000000      0.596245     0.462495      0.596245     0.462495      0.001000     0.000000
 193105.0000      0.001000     0.000000      0.538582     0.473573      0.538582     0.473573      0.001000     0.000000
 193110.0000      0.001000     0.000000      0.479996     0.477490      0.479996     0.477490      0.001000     0.000000
 193115.0000      0.001000     0.000000      0.421373     0.474187      0.421373     0.474187      0.001000     0.000000
 193120.0000      0.001000     0.000000      0.363597     0.463713      0.363597     0.463713      0.001000     0.000000
 193125.0000      0.001000     0.000000      0.307545     0.446228      0.307545     0.446228      0.001000     0.000000
 193130.0000      0.001000     0.000000      0.254062     0.421995      0.254062     0.421995      0.001000     0.000000
 193135.0000      0.001000     0.000000      0.203957     0.391381      0.203957     0.391381      0.001000     0.000000
 193140.0000      0.001000     0.000000      0.157989     0.354849      0.157989     0.354849      0.001000     0.000000
 193145.0000      0.001000     0.000000      0.116852     0.312951      0.116852     0.312951      0.001000     0.000000
 193150.0000      0.001000     0.000000      0.081169     0.266321      0.081169     0.266321      0.001000     0.000000
 193155.0000      0.001000     0.000000      0.051478     0.215664      0.051478     0.215664      0.001000     0.000000
 193160.0000      0.001000     0.000000      0.028229     0.161746      0.028229     0.161746      0.001000     0.000000
 193165.0000      0.001000     0.000000      0.011774     0.105382      0.011774     0.105382      0.001000     0.000000
 193170.0000      0.001000     0.000000      0.002361     0.047425      0.002361     0.047425      0.001000     0.000000
 193175.0000      0.001000     0.000000     -0.000133     0.011250     -0.000133     0.011250      0.001000     0.000000
 193180.0000      0.001000     0.000000     -0.005122     0.069754     -0.005122     0.069754      0.001000     0.000000
 193185.0000      0.001000     0.000000     -0.017255     0.127204     -0.017255     0.127204      0.001000     0.000000
 193190.0000      0.001000     0.000000     -0.036347     0.182730     -0.036347     0.182730      0.001000     0.000000
 193195.0000      0.001000     0.000000     -0.062110     0.235493     -0.062110     0.235493      0.001000     0.000000
 193200.0000      0.001000     0.000000     -0.094154     0.284695     -0.094154     0.284695      0.001000     0.000000
 193205.0000      0.001000     0.000000     -0.131994     0.329592     -0.131994     0.329592      0.001000     0.000000
 193210.0000      0.001000     0.000000     -0.175059     0.369506     -0.175059     0.369506      0.001000     0.000000
 193215.0000      0.001000     0.000000     -0.222697     0.403832     -0.222697     0.403832      0.001000     0.000000
 193220.0000      0.001000     0.000000     -0.274188     0.432052     -0.274188     0.432052      0.001000     0.000000
 193225.0000      0.001000     0.000000     -0.328753     0.453738     -0.328753     0.453738      0.001000     0.000000
 193230.0000      0.001000     0.000000     -0.385568     0.468564     -0.385568     0.468564      0.001000     0.000000
 193235.0000      0.001000     0.000000     -0.443772     0.476304     -0.443772     0.476304      0.001000     0.000000
 193240.0000      0.001000     0.000000     -0.502487     0.476842     -0.502487     0.476842      0.001000     0.000000
 193245.0000      0.001000     0.000000     -0.560823     0.470170     -0.560823     0.470170      0.001000     0.000000
 193250.0000      0.001000     0.000000     -0.617899     0.456388     -0.617899     0.456388      0.001000     0.000000
 193255.0000      0.001000     0.000000     -0.672853     0.435705     -0.672853     0.435705      0.001000     0.000000
 193260.0000      0.001000     0.000000     -0.724852     0.408433     -0.724852     0.408433      0.001000     0.000000
 193265.0000      0.001000     0.000000     -0.773111     0.374986     -0.773111     0.374986      0.001000     0.000000
 193270.0000      0.001000     0.000000     -0.816900     0.335868     -0.816900     0.335868      0.001000     0.000000
 193275.0000      0.001000     0.000000     -0.855557     0.291672     -0.855557     0.291672      0.001000     0.000000
 193280.0000      0.001000     0.000000     -0.888497     0.243065     -0.888497     0.243065      0.001000     0.000000
 193285.0000      0.001000     0.000000     -0.915223     0.190783     -0.915223     0.190783      0.001000     0.000000
 193290.0000      0.001000     0.000000     -0.935329     0.135616     -0.935329     0.135616      0.001000     0.000000
 193295.0000      0.001000     0.000000     -0.948513     0.078399     -0.948513     0.078399      0.001000     0.000000
 193300.0000      0.001000     0.000000     -0.954574     0.019995     -0.954574     0.019995      0.001000     0.000000
 193305.0000      0.001000     0.000000     -0.953421    -0.038710     -0.953421    -0.038710      0.001000     0.000000
 193310.0000      0.001000     0.000000     -0.945072    -0.096830     -0.945072    -0.096830      0.001000     0.000000
 193315.0000      0.001000     0.000000     -0.929652    -0.153486     -0.929652    -0.153486      0.001000     0.000000
 193320.0000      0.001000     0.000000     -0.907395    -0.207821     -0.907395    -0.207821      0.001000     0.000000
 193325.0000      0.001000     0.000000     -0.878638    -0.259014     -0.878638    -0.259014      0.001000     0.000000
 193330.0000      0.001000     0.000000     -0.843815    -0.306290     -0.843815    -0.306290      0.001000     0.000000
 193335.0000      0.001000     0.000000     -0.803453    -0.348934     -0.803453    -0.348934      0.001000     0.000000
 193340.0000      0.001000     0.000000     -0.758162    -0.386303     -0.758162    -0.386303      0.001000     0.000000
 193345.0000      0.001000     0.000000     -0.708627    -0.417830     -0.708627    -0.417830      0.001000     0.000000
 193350.0000      0.001000     0.000000     -0.655597    -0.443038     -0.655597    -0.443038      0.001000     0.000000
 193355.0000      0.001000     0.000000     -0.599874    -0.461548     -0.599874    -0.461548      0.001000     0.000000
 193360.0000      0.001000     0.000000     -0.542300    -0.473078     -0.542300    -0.473078      0.001000     0.000000
 193365.0000      0.001000     0.000000     -0.483747    -0.477455     -0.483747    -0.477455      0.001000     0.000000
 193370.0000      0.001000     0.000000     -0.425099    -0.474613     -0.425099    -0.474613      0.001000     0.000000
 193375.0000      0.001000     0.000000     -0.367243    -0.464593     -0.367243    -0.464593      0.001000     0.000000
 193380.0000      0.001000     0.000000     -0.311054    -0.447549     -0.311054    -0.447549      0.001000     0.000000
 193385.0000      0.001000     0.000000     -0.257383    -0.423737     -0.257383    -0.423737      0.001000     0.000000
 193390.0000      0.001000     0.000000     -0.207039    -0.393517     -0.207039    -0.393517      0.001000     0.000000
 193395.0000      0.001000     0.000000     -0.160786    -0.357347     -0.160786    -0.357347      0.001000     0.000000
 193400.0000      0.001000     0.000000     -0.119321    -0.315774     -0.119321    -0.315774      0.001000     0.000000
 193405.0000      0.001000     0.000000     -0.083272    -0.269426     -0.083272    -0.269426      0.001000     0.000000
