! Touchstone S2P File
! LightRail AI LR-P3A Rev 6.3 — QPA
! 50-ohm CPW on TFLN substrate, 5mm length, 1-120 GHz
! Generated by generate_sparams.py
!
# GHz S RI R 50.0
! freq        Re(S11)     Im(S11)     Re(S21)     Im(S21)     Re(S12)     Im(S12)     Re(S22)     Im(S22)
      1.0000      0.012995    -0.015203      0.882458    -0.406607      0.882458    -0.406607      0.012995    -0.015203
      2.0000     -0.003113    -0.019756      0.623833    -0.729829      0.623833    -0.729829     -0.003113    -0.019756
      3.0000     -0.017040    -0.010470      0.258785    -0.915498      0.258785    -0.915498     -0.017040    -0.010470
      4.0000     -0.019031     0.006150     -0.146944    -0.932555     -0.146944    -0.932555     -0.019031     0.006150
      5.0000     -0.007690     0.018462     -0.520167    -0.780160     -0.520167    -0.780160     -0.007690     0.018462
      6.0000      0.009037     0.017842     -0.794018    -0.487876     -0.794018    -0.487876      0.009037     0.017842
      7.0000      0.019434     0.004723     -0.920102    -0.110197     -0.920102    -0.110197      0.019434     0.004723
      8.0000      0.016218    -0.011704     -0.877152     0.283466     -0.877152     0.283466      0.016218    -0.011704
      9.0000      0.001640    -0.019933     -0.674688     0.621445     -0.674688     0.621445      0.001640    -0.019933
     10.0000     -0.014086    -0.014198     -0.351064     0.842810     -0.351064     0.842810     -0.014086    -0.014198
     11.0000     -0.019945     0.001482      0.033703     0.908331      0.033703     0.908331     -0.019945     0.001482
     12.0000     -0.011833     0.016124      0.408988     0.807431      0.408988     0.807431     -0.011833     0.016124
     13.0000      0.004569     0.019471      0.706465     0.559893      0.706465     0.559893      0.004569     0.019471
     14.0000      0.017769     0.009179      0.872509     0.212036      0.872509     0.212036      0.017769     0.009179
     15.0000      0.018523    -0.007544      0.877844    -0.171900      0.877844    -0.171900      0.018523    -0.007544
     16.0000      0.006301    -0.018982      0.722697    -0.521574      0.722697    -0.521574      0.006301    -0.018982
     17.0000     -0.010335    -0.017123      0.436555    -0.773396      0.436555    -0.773396     -0.010335    -0.017123
     18.0000     -0.019731    -0.003270      0.072590    -0.882068      0.072590    -0.882068     -0.019731    -0.003270
     19.0000     -0.015306     0.012874     -0.302186    -0.828717     -0.302186    -0.828717     -0.015306     0.012874
     20.0000     -0.000159     0.019999     -0.619233    -0.624166     -0.619233    -0.624166     -0.000159     0.019999
     21.0000      0.015099     0.013115     -0.820991    -0.306771     -0.820991    -0.306771      0.015099     0.013115
     22.0000      0.019780    -0.002956     -0.871314     0.064749     -0.871314     0.064749      0.019780    -0.002956
     23.0000      0.010605    -0.016957     -0.761939     0.422151     -0.761939     0.422151      0.010605    -0.016957
     24.0000     -0.005999    -0.019079     -0.513824     0.700183     -0.513824     0.700183     -0.005999    -0.019079
     25.0000     -0.018401    -0.007837     -0.173152     0.848478     -0.173152     0.848478     -0.018401    -0.007837
     26.0000     -0.017913     0.008896      0.197247     0.840671      0.197247     0.840671     -0.017913     0.008896
     27.0000     -0.004877     0.019396      0.529466     0.679075      0.529466     0.679075     -0.004877     0.019396
     28.0000      0.011575     0.016310      0.762957     0.394100      0.762957     0.394100      0.011575     0.016310
     29.0000      0.019919     0.001798      0.855551     0.038545      0.855551     0.038545      0.019919     0.001798
     30.0000      0.014309    -0.013973      0.791066    -0.322168      0.791066    -0.322168      0.014309    -0.013973
     31.0000     -0.001324    -0.019956      0.582127    -0.622023      0.582127    -0.622023     -0.001324    -0.019956
     32.0000     -0.016030    -0.011960      0.267712    -0.806475      0.267712    -0.806475     -0.016030    -0.011960
     33.0000     -0.019507     0.004414     -0.094113    -0.842365     -0.094113    -0.842365     -0.019507     0.004414
     34.0000     -0.009319     0.017696     -0.436901    -0.723871     -0.436901    -0.723871     -0.009319     0.017696
     35.0000      0.007396     0.018582     -0.698017    -0.473443     -0.698017    -0.473443      0.007396     0.018582
     36.0000      0.018931     0.006451     -0.830077    -0.137555     -0.830077    -0.137555      0.018931     0.006451
     37.0000      0.017204    -0.010199     -0.809531     0.221910     -0.809531     0.221910      0.017204    -0.010199
     38.0000      0.003426    -0.019704     -0.640865     0.539048     -0.640865     0.539048      0.003426    -0.019704
     39.0000     -0.012752    -0.015407     -0.355643     0.756011     -0.355643     0.756011     -0.012752    -0.015407
     40.0000     -0.019997    -0.000317     -0.006614     0.833548     -0.006614     0.833548     -0.019997    -0.000317
     41.0000     -0.013235     0.014995      0.342041     0.758101      0.342041     0.758101     -0.013235     0.014995
     42.0000      0.002799     0.019803      0.626499     0.544174      0.626499     0.544174      0.002799     0.019803
     43.0000      0.016872     0.010739      0.794972     0.231544      0.794972     0.231544      0.016872     0.010739
     44.0000      0.019126    -0.005847      0.817126    -0.122119      0.817126    -0.122119      0.019126    -0.005847
     45.0000      0.007982    -0.018338      0.689542    -0.451886      0.689542    -0.451886      0.007982    -0.018338
     46.0000     -0.008753    -0.017983      0.436223    -0.697484      0.436223    -0.697484     -0.008753    -0.017983
     47.0000     -0.019357    -0.005031      0.104087    -0.814303      0.104087    -0.814303     -0.019357    -0.005031
     48.0000     -0.016401     0.011445     -0.245721    -0.781496     -0.245721    -0.781496     -0.016401     0.011445
     49.0000     -0.001956     0.019904     -0.549075    -0.605693     -0.549075    -0.605693     -0.001956     0.019904
     50.0000      0.013859     0.014420     -0.750618    -0.319675     -0.750618    -0.319675      0.013859     0.014420
     51.0000      0.019966    -0.001165     -0.813858     0.023733     -0.813858     0.023733      0.019966    -0.001165
     52.0000      0.012087    -0.015934     -0.727775     0.361412     -0.727775     0.361412      0.012087    -0.015934
     53.0000     -0.004259    -0.019541     -0.508729     0.631547     -0.508729     0.631547     -0.004259    -0.019541
     54.0000     -0.017622    -0.009459     -0.197363     0.784935     -0.197363     0.784935     -0.017622    -0.009459
     55.0000     -0.018640     0.007249      0.148939     0.793941      0.148939     0.793941     -0.018640     0.007249
     56.0000     -0.006601     0.018879      0.466616     0.657479      0.466616     0.657479     -0.006601     0.018879
     57.0000      0.010062     0.017285      0.697597     0.401102      0.697597     0.401102      0.010062     0.017285
     58.0000      0.019677     0.003582      0.799910     0.072224      0.799910     0.072224      0.019677     0.003582
     59.0000      0.015508    -0.012629      0.755301    -0.268644      0.755301    -0.268644      0.015508    -0.012629
     60.0000      0.000476    -0.019994      0.572493    -0.559024      0.572493    -0.559024      0.000476    -0.019994
     61.0000     -0.014889    -0.013353      0.285484    -0.745915      0.285484    -0.745915     -0.014889    -0.013353
     62.0000     -0.019825     0.002642     -0.052769    -0.795468     -0.052769    -0.795468     -0.019825     0.002642
     63.0000     -0.010873     0.016786     -0.380121    -0.699108     -0.380121    -0.699108     -0.010873     0.016786
     64.0000      0.005695     0.019172     -0.636647    -0.475017     -0.636647    -0.475017      0.005695     0.019172
     65.0000      0.018274     0.008128     -0.775614    -0.164703     -0.775614    -0.164703      0.018274     0.008128
     66.0000      0.018052    -0.008610     -0.771984     0.174680     -0.771984     0.174680      0.018052    -0.008610
     67.0000      0.005184    -0.019316     -0.626929     0.480859     -0.626929     0.480859      0.005184    -0.019316
     68.0000     -0.011315    -0.016492     -0.367519     0.697862     -0.367519     0.697862     -0.011315    -0.016492
     69.0000     -0.019888    -0.002114     -0.041677     0.786247     -0.041677     0.786247     -0.019888    -0.002114
     70.0000     -0.014529     0.013744      0.290674     0.730270      0.290674     0.730270     -0.014529     0.013744
     71.0000      0.001007     0.019975      0.568625     0.540682      0.568625     0.540682      0.001007     0.019975
     72.0000      0.015838     0.012213      0.741442     0.252673      0.741442     0.252673      0.015838     0.012213
     73.0000      0.019574    -0.004104      0.777819    -0.080658      0.777819    -0.080658      0.019574    -0.004104
     74.0000      0.009599    -0.017546      0.671554    -0.398088      0.671554    -0.398088      0.009599    -0.017546
     75.0000     -0.007101    -0.018697      0.442593    -0.641515      0.442593    -0.641515     -0.007101    -0.018697
     76.0000     -0.018826    -0.006751      0.133292    -0.766586      0.133292    -0.766586     -0.018826    -0.006751
     77.0000     -0.017364     0.009924     -0.199413    -0.750778     -0.199413    -0.750778     -0.017364     0.009924
     78.0000     -0.003738     0.019648     -0.494488    -0.597448     -0.494488    -0.597448     -0.003738     0.019648
     79.0000      0.012506     0.015608     -0.697992    -0.335140     -0.697992    -0.335140      0.012506     0.015608
     80.0000      0.019990     0.000635     -0.772936    -0.012268     -0.772936    -0.012268      0.019990     0.000635
     81.0000      0.013471    -0.014783     -0.706001     0.311815     -0.706001     0.311815      0.013471    -0.014783
     82.0000     -0.002484    -0.019845     -0.509907     0.577724     -0.509907     0.577724     -0.002484    -0.019845
     83.0000     -0.016699    -0.011006     -0.220994     0.736921     -0.220994     0.736921     -0.016699    -0.011006
     84.0000     -0.019217     0.005543      0.107504     0.760574      0.107504     0.760574     -0.019217     0.005543
     85.0000     -0.008272     0.018209      0.415272     0.644775      0.415272     0.644775     -0.008272     0.018209
     86.0000      0.008467     0.018120      0.645980     0.411178      0.645980     0.411178      0.008467     0.018120
     87.0000      0.019275     0.005337      0.757592     0.102954      0.757592     0.102954      0.019275     0.005337
     88.0000      0.016581    -0.011184      0.730025    -0.223188      0.730025    -0.223188      0.016581    -0.011184
     89.0000      0.002272    -0.019871      0.568758    -0.507429      0.568758    -0.507429      0.002272    -0.019871
     90.0000     -0.013628    -0.014638      0.303750    -0.697812      0.303750    -0.697812     -0.013628    -0.014638
     91.0000     -0.019982     0.000848     -0.016122    -0.759734     -0.016122    -0.759734     -0.019982     0.000848
     92.0000     -0.012338     0.015741     -0.332075    -0.682236     -0.332075    -0.682236     -0.012338     0.015741
     93.0000      0.003948     0.019606     -0.586224    -0.479939     -0.586224    -0.479939      0.003948     0.019606
     94.0000      0.017469     0.009738     -0.732178    -0.190287     -0.732178    -0.190287      0.017469     0.009738
     95.0000      0.018753    -0.006952     -0.743513     0.133380     -0.743513     0.133380      0.018753    -0.006952
     96.0000      0.006900    -0.018772     -0.618550     0.431648     -0.618550     0.431648      0.006900    -0.018772
     97.0000     -0.009786    -0.017442     -0.380589     0.649932     -0.380589     0.649932     -0.009786    -0.017442
     98.0000     -0.019617    -0.003894     -0.073571     0.748462     -0.073571     0.748462     -0.019617    -0.003894
     99.0000     -0.015706     0.012382      0.246040     0.709531      0.246040     0.709531     -0.015706     0.012382
    100.0000     -0.000793     0.019984      0.519634     0.540671      0.519634     0.540671     -0.000793     0.019984
    101.0000      0.014676     0.013588      0.697204     0.273203      0.697204     0.273203      0.014676     0.013588
    102.0000      0.019864    -0.002327      0.746482    -0.043573      0.746482    -0.043573      0.019864    -0.002327
    103.0000      0.011138    -0.016612      0.658803    -0.351462      0.658803    -0.351462      0.011138    -0.016612
    104.0000     -0.005390    -0.019260      0.450624    -0.594061      0.450624    -0.594061     -0.005390    -0.019260
    105.0000     -0.018143    -0.008417      0.160440    -0.727095      0.160440    -0.727095     -0.018143    -0.008417
    106.0000     -0.018186     0.008323     -0.158336    -0.726489     -0.158336    -0.726489     -0.018186     0.008323
    107.0000     -0.005490     0.019232     -0.447202    -0.592729     -0.447202    -0.592729     -0.005490     0.019232
    108.0000      0.011052     0.016669     -0.653298    -0.350700     -0.653298    -0.350700      0.011052     0.016669
    109.0000      0.019852     0.002430     -0.739081    -0.045061     -0.739081    -0.045061      0.019852     0.002430
    110.0000      0.014746    -0.013512     -0.689161     0.267996     -0.689161     0.267996      0.014746    -0.013512
    111.0000     -0.000690    -0.019988     -0.513061     0.531074     -0.513061     0.531074     -0.000690    -0.019988
    112.0000     -0.015642    -0.012463     -0.243400     0.696091     -0.243400     0.696091     -0.015642    -0.012463
    113.0000     -0.019637     0.003793      0.070143     0.733071      0.070143     0.733071     -0.019637     0.003793
    114.0000     -0.009876     0.017391      0.369980     0.635582      0.369980     0.635582     -0.009876     0.017391
    115.0000      0.006803     0.018807      0.601195     0.421855      0.601195     0.421855      0.006803     0.018807
    116.0000      0.018717     0.007049      0.721592     0.131376      0.721592     0.131376      0.018717     0.007049
    117.0000      0.017519    -0.009647      0.709400    -0.182409      0.709400    -0.182409      0.017519    -0.009647
    118.0000      0.004050    -0.019586      0.567208    -0.461924      0.567208    -0.461924      0.004050    -0.019586
    119.0000     -0.012257    -0.015804      0.321422    -0.656029      0.321422    -0.656029     -0.012257    -0.015804
    120.0000     -0.019977    -0.000952      0.017366    -0.729370      0.017366    -0.729370     -0.019977    -0.000952
